#Parameters = {R_source=50; R_load=0.1; a_Pinet_sonet_L_nuH=0.355; a_Pinet_sonet_C1_nF=71.852; fmin=0.8; fmax=1.2; a_Pinet_sonet_C2_nF=355; tpr_height=0.03; tpr_substrate_height=525}
#"Frequency / MHz"	"Zpi_sonet,pi_sonet (a_Pinet_sonet_C1_nF=71.852) [Re / Ohm]"	"Zpi_sonet,pi_sonet (a_Pinet_sonet_C1_nF=71.852) [Im / Ohm]"
#-------------------------------------------------------------------------------------------------------------------------------------------
0.80000000000000	0.73362844585425	4.8137054795521
0.80004000000000	0.73388214453898	4.8147716792274
0.80008000000000	0.73413598771288	4.8158382816750
0.80012000000000	0.73438997548671	4.8169052871240
0.80016000000000	0.73464410797139	4.8179726958036
0.80020000000000	0.73489838527790	4.8190405079431
0.80024000000000	0.73515280751736	4.8201087237720
0.80028000000000	0.73540737480097	4.8211773435199
0.80032000000000	0.73566208724006	4.8222463674168
0.80036000000000	0.73591694494606	4.8233157956927
0.80040000000000	0.73617194803049	4.8243856285776
0.80044000000000	0.73642709660501	4.8254558663021
0.80048000000000	0.73668239078136	4.8265265090966
0.80052000000000	0.73693783067139	4.8275975571919
0.80056000000000	0.73719341638708	4.8286690108188
0.80060000000000	0.73744914804049	4.8297408702084
0.80064000000000	0.73770502574381	4.8308131355918
0.80068000000000	0.73796104960933	4.8318858072006
0.80072000000000	0.73821721974943	4.8329588852663
0.80076000000000	0.73847353627663	4.8340323700206
0.80080000000000	0.73872999930356	4.8351062616954
0.80084000000000	0.73898660894290	4.8361805605229
0.80088000000000	0.73924336530752	4.8372552667352
0.80092000000000	0.73950026851034	4.8383303805650
0.80096000000000	0.73975731866442	4.8394059022446
0.80100000000000	0.74001451588292	4.8404818320070
0.80104000000000	0.74027186027910	4.8415581700851
0.80108000000000	0.74052935196633	4.8426349167121
0.80112000000000	0.74078699105811	4.8437120721212
0.80116000000000	0.74104477766804	4.8447896365459
0.80120000000000	0.74130271190982	4.8458676102200
0.80124000000000	0.74156079389726	4.8469459933772
0.80128000000000	0.74181902374429	4.8480247862515
0.80132000000000	0.74207740156495	4.8491039890772
0.80136000000000	0.74233592747339	4.8501836020886
0.80140000000000	0.74259460158386	4.8512636255202
0.80144000000000	0.74285342401072	4.8523440596068
0.80148000000000	0.74311239486847	4.8534249045832
0.80152000000000	0.74337151427168	4.8545061606845
0.80156000000000	0.74363078233506	4.8555878281460
0.80160000000000	0.74389019917342	4.8566699072031
0.80164000000000	0.74414976490167	4.8577523980913
0.80168000000000	0.74440947963486	4.8588353010465
0.80172000000000	0.74466934348813	4.8599186163046
0.80176000000000	0.74492935657673	4.8610023441017
0.80180000000000	0.74518951901604	4.8620864846742
0.80184000000000	0.74544983092153	4.8631710382585
0.80188000000000	0.74571029240879	4.8642560050912
0.80192000000000	0.74597090359354	4.8653413854093
0.80196000000000	0.74623166459158	4.8664271794497
0.80200000000000	0.74649257551885	4.8675133874496
0.80204000000000	0.74675363649139	4.8686000096465
0.80208000000000	0.74701484762535	4.8696870462778
0.80212000000000	0.74727620903699	4.8707744975813
0.80216000000000	0.74753772084270	4.8718623637949
0.80220000000000	0.74779938315897	4.8729506451567
0.80224000000000	0.74806119610241	4.8740393419049
0.80228000000000	0.74832315978973	4.8751284542781
0.80232000000000	0.74858527433777	4.8762179825148
0.80236000000000	0.74884753986347	4.8773079268538
0.80240000000000	0.74910995648389	4.8783982875342
0.80244000000000	0.74937252431621	4.8794890647950
0.80248000000000	0.74963524347771	4.8805802588757
0.80252000000000	0.74989811408580	4.8816718700158
0.80256000000000	0.75016113625798	4.8827638984550
0.80260000000000	0.75042431011191	4.8838563444331
0.80264000000000	0.75068763576531	4.8849492081903
0.80268000000000	0.75095111333603	4.8860424899667
0.80272000000000	0.75121474294207	4.8871361900029
0.80276000000000	0.75147852470150	4.8882303085394
0.80280000000000	0.75174245873253	4.8893248458171
0.80284000000000	0.75200654515349	4.8904198020769
0.80288000000000	0.75227078408279	4.8915151775599
0.80292000000000	0.75253517563900	4.8926109725076
0.80296000000000	0.75279971994078	4.8937071871614
0.80300000000000	0.75306441710691	4.8948038217630
0.80304000000000	0.75332926725628	4.8959008765544
0.80308000000000	0.75359427050791	4.8969983517776
0.80312000000000	0.75385942698093	4.8980962476749
0.80316000000000	0.75412473679458	4.8991945644886
0.80320000000000	0.75439020006822	4.9002933024615
0.80324000000000	0.75465581692133	4.9013924618362
0.80328000000000	0.75492158747351	4.9024920428559
0.80332000000000	0.75518751184447	4.9035920457637
0.80336000000000	0.75545359015402	4.9046924708029
0.80340000000000	0.75571982252213	4.9057933182171
0.80344000000000	0.75598620906885	4.9068945882500
0.80348000000000	0.75625274991436	4.9079962811455
0.80352000000000	0.75651944517896	4.9090983971477
0.80356000000000	0.75678629498306	4.9102009365009
0.80360000000000	0.75705329944720	4.9113038994496
0.80364000000000	0.75732045869202	4.9124072862383
0.80368000000000	0.75758777283830	4.9135110971120
0.80372000000000	0.75785524200692	4.9146153323156
0.80376000000000	0.75812286631887	4.9157199920944
0.80380000000000	0.75839064589531	4.9168250766937
0.80384000000000	0.75865858085744	4.9179305863592
0.80388000000000	0.75892667132665	4.9190365213365
0.80392000000000	0.75919491742441	4.9201428818716
0.80396000000000	0.75946331927232	4.9212496682108
0.80400000000000	0.75973187699209	4.9223568806002
0.80404000000000	0.76000059070556	4.9234645192864
0.80408000000000	0.76026946053469	4.9245725845162
0.80412000000000	0.76053848660154	4.9256810765363
0.80416000000000	0.76080766902834	4.9267899955938
0.80420000000000	0.76107700793737	4.9278993419361
0.80424000000000	0.76134650345108	4.9290091158106
0.80428000000000	0.76161615569201	4.9301193174648
0.80432000000000	0.76188596478286	4.9312299471467
0.80436000000000	0.76215593084642	4.9323410051042
0.80440000000000	0.76242605400559	4.9334524915855
0.80444000000000	0.76269633438342	4.9345644068391
0.80448000000000	0.76296677210307	4.9356767511134
0.80452000000000	0.76323736728781	4.9367895246573
0.80456000000000	0.76350812006104	4.9379027277197
0.80460000000000	0.76377903054629	4.9390163605498
0.80464000000000	0.76405009886719	4.9401304233969
0.80468000000000	0.76432132514751	4.9412449165105
0.80472000000000	0.76459270951113	4.9423598401404
0.80476000000000	0.76486425208208	4.9434751945364
0.80480000000000	0.76513595298446	4.9445909799486
0.80484000000000	0.76540781234254	4.9457071966273
0.80488000000000	0.76567983028069	4.9468238448231
0.80492000000000	0.76595200692339	4.9479409247865
0.80496000000000	0.76622434239529	4.9490584367684
0.80500000000000	0.76649683682110	4.9501763810199
0.80504000000000	0.76676949032570	4.9512947577922
0.80508000000000	0.76704230303408	4.9524135673367
0.80512000000000	0.76731527507134	4.9535328099051
0.80516000000000	0.76758840656272	4.9546524857492
0.80520000000000	0.76786169763358	4.9557725951209
0.80524000000000	0.76813514840939	4.9568931382725
0.80528000000000	0.76840875901576	4.9580141154564
0.80532000000000	0.76868252957842	4.9591355269252
0.80536000000000	0.76895646022322	4.9602573729316
0.80540000000000	0.76923055107613	4.9613796537286
0.80544000000000	0.76950480226326	4.9625023695693
0.80548000000000	0.76977921391083	4.9636255207072
0.80552000000000	0.77005378614518	4.9647491073958
0.80556000000000	0.77032851909281	4.9658731298888
0.80560000000000	0.77060341288030	4.9669975884401
0.80564000000000	0.77087846763437	4.9681224833039
0.80568000000000	0.77115368348188	4.9692478147345
0.80572000000000	0.77142906054979	4.9703735829864
0.80576000000000	0.77170459896522	4.9714997883144
0.80580000000000	0.77198029885538	4.9726264309734
0.80584000000000	0.77225616034763	4.9737535112184
0.80588000000000	0.77253218356945	4.9748810293047
0.80592000000000	0.77280836864842	4.9760089854879
0.80596000000000	0.77308471571231	4.9771373800236
0.80600000000000	0.77336122488893	4.9782662131678
0.80604000000000	0.77363789630630	4.9793954851765
0.80608000000000	0.77391473009251	4.9805251963059
0.80612000000000	0.77419172637579	4.9816553468127
0.80616000000000	0.77446888528452	4.9827859369533
0.80620000000000	0.77474620694717	4.9839169669847
0.80624000000000	0.77502369149238	4.9850484371641
0.80628000000000	0.77530133904888	4.9861803477485
0.80632000000000	0.77557914974555	4.9873126989955
0.80636000000000	0.77585712371138	4.9884454911627
0.80640000000000	0.77613526107550	4.9895787245080
0.80644000000000	0.77641356196717	4.9907123992895
0.80648000000000	0.77669202651578	4.9918465157653
0.80652000000000	0.77697065485082	4.9929810741940
0.80656000000000	0.77724944710195	4.9941160748342
0.80660000000000	0.77752840339893	4.9952515179446
0.80664000000000	0.77780752387167	4.9963874037845
0.80668000000000	0.77808680865019	4.9975237326129
0.80672000000000	0.77836625786463	4.9986605046894
0.80676000000000	0.77864587164530	4.9997977202735
0.80680000000000	0.77892565012261	5.0009353796252
0.80684000000000	0.77920559342709	5.0020734830044
0.80688000000000	0.77948570168942	5.0032120306714
0.80692000000000	0.77976597504041	5.0043510228867
0.80696000000000	0.78004641361099	5.0054904599108
0.80700000000000	0.78032701753222	5.0066303420047
0.80704000000000	0.78060778693531	5.0077706694293
0.80708000000000	0.78088872195157	5.0089114424458
0.80712000000000	0.78116982271245	5.0100526613158
0.80716000000000	0.78145108934955	5.0111943263009
0.80720000000000	0.78173252199458	5.0123364376629
0.80724000000000	0.78201412077939	5.0134789956638
0.80728000000000	0.78229588583596	5.0146220005659
0.80732000000000	0.78257781729640	5.0157654526317
0.80736000000000	0.78285991529295	5.0169093521238
0.80740000000000	0.78314217995799	5.0180536993050
0.80744000000000	0.78342461142402	5.0191984944385
0.80748000000000	0.78370720982368	5.0203437377874
0.80752000000000	0.78398997528975	5.0214894296152
0.80756000000000	0.78427290795512	5.0226355701856
0.80760000000000	0.78455600795282	5.0237821597625
0.80764000000000	0.78483927541603	5.0249291986099
0.80768000000000	0.78512271047806	5.0260766869920
0.80772000000000	0.78540631327232	5.0272246251735
0.80776000000000	0.78569008393239	5.0283730134189
0.80780000000000	0.78597402259197	5.0295218519931
0.80784000000000	0.78625812938488	5.0306711411613
0.80788000000000	0.78654240444512	5.0318208811887
0.80792000000000	0.78682684790675	5.0329710723408
0.80796000000000	0.78711145990403	5.0341217148833
0.80800000000000	0.78739624057134	5.0352728090822
0.80804000000000	0.78768119004315	5.0364243552035
0.80808000000000	0.78796630845412	5.0375763535136
0.80812000000000	0.78825159593902	5.0387288042790
0.80816000000000	0.78853705263275	5.0398817077664
0.80820000000000	0.78882267867036	5.0410350642427
0.80824000000000	0.78910847418702	5.0421888739752
0.80828000000000	0.78939443931805	5.0433431372311
0.80832000000000	0.78968057419890	5.0444978542781
0.80836000000000	0.78996687896513	5.0456530253838
0.80840000000000	0.79025335375249	5.0468086508162
0.80844000000000	0.79053999869682	5.0479647308436
0.80848000000000	0.79082681393411	5.0491212657343
0.80852000000000	0.79111379960049	5.0502782557569
0.80856000000000	0.79140095583222	5.0514357011802
0.80860000000000	0.79168828276571	5.0525936022733
0.80864000000000	0.79197578053749	5.0537519593052
0.80868000000000	0.79226344928423	5.0549107725456
0.80872000000000	0.79255128914275	5.0560700422639
0.80876000000000	0.79283930024999	5.0572297687301
0.80880000000000	0.79312748274303	5.0583899522141
0.80884000000000	0.79341583675911	5.0595505929863
0.80888000000000	0.79370436243558	5.0607116913172
0.80892000000000	0.79399305990994	5.0618732474773
0.80896000000000	0.79428192931983	5.0630352617376
0.80900000000000	0.79457097080301	5.0641977343693
0.80904000000000	0.79486018449741	5.0653606656435
0.80908000000000	0.79514957054107	5.0665240558319
0.80912000000000	0.79543912907221	5.0676879052062
0.80916000000000	0.79572886022911	5.0688522140382
0.80920000000000	0.79601876415027	5.0700169826003
0.80924000000000	0.79630884097429	5.0711822111646
0.80928000000000	0.79659909083991	5.0723479000039
0.80932000000000	0.79688951388603	5.0735140493909
0.80936000000000	0.79718011025167	5.0746806595985
0.80940000000000	0.79747088007600	5.0758477309001
0.80944000000000	0.79776182349831	5.0770152635690
0.80948000000000	0.79805294065807	5.0781832578789
0.80952000000000	0.79834423169484	5.0793517141036
0.80956000000000	0.79863569674837	5.0805206325172
0.80960000000000	0.79892733595851	5.0816900133940
0.80964000000000	0.79921914946528	5.0828598570084
0.80968000000000	0.79951113740883	5.0840301636351
0.80972000000000	0.79980329992944	5.0852009335492
0.80976000000000	0.80009563716755	5.0863721670256
0.80980000000000	0.80038814926373	5.0875438643398
0.80984000000000	0.80068083635870	5.0887160257674
0.80988000000000	0.80097369859332	5.0898886515840
0.80992000000000	0.80126673610859	5.0910617420656
0.80996000000000	0.80155994904564	5.0922352974886
0.81000000000000	0.80185333754575	5.0934093181292
0.81004000000000	0.80214690175037	5.0945838042642
0.81008000000000	0.80244064180106	5.0957587561703
0.81012000000000	0.80273455783953	5.0969341741247
0.81016000000000	0.80302865000763	5.0981100584046
0.81020000000000	0.80332291844737	5.0992864092876
0.81024000000000	0.80361736330089	5.1004632270513
0.81028000000000	0.80391198471046	5.1016405119736
0.81032000000000	0.80420678281853	5.1028182643328
0.81036000000000	0.80450175776767	5.1039964844071
0.81040000000000	0.80479690970059	5.1051751724752
0.81044000000000	0.80509223876016	5.1063543288158
0.81048000000000	0.80538774508938	5.1075339537081
0.81052000000000	0.80568342883141	5.1087140474311
0.81056000000000	0.80597929012953	5.1098946102644
0.81060000000000	0.80627532912721	5.1110756424876
0.81064000000000	0.80657154596801	5.1122571443807
0.81068000000000	0.80686794079567	5.1134391162237
0.81072000000000	0.80716451375407	5.1146215582969
0.81076000000000	0.80746126498723	5.1158044708810
0.81080000000000	0.80775819463933	5.1169878542566
0.81084000000000	0.80805530285467	5.1181717087047
0.81088000000000	0.80835258977772	5.1193560345066
0.81092000000000	0.80865005555309	5.1205408319437
0.81096000000000	0.80894770032552	5.1217261012977
0.81100000000000	0.80924552423992	5.1229118428503
0.81104000000000	0.80954352744135	5.1240980568837
0.81108000000000	0.80984171007499	5.1252847436801
0.81112000000000	0.81014007228620	5.1264719035222
0.81116000000000	0.81043861422044	5.1276595366926
0.81120000000000	0.81073733602339	5.1288476434744
0.81124000000000	0.81103623784080	5.1300362241506
0.81128000000000	0.81133531981862	5.1312252790048
0.81132000000000	0.81163458210294	5.1324148083206
0.81136000000000	0.81193402483997	5.1336048123818
0.81140000000000	0.81223364817610	5.1347952914725
0.81144000000000	0.81253345225786	5.1359862458770
0.81148000000000	0.81283343723192	5.1371776758798
0.81152000000000	0.81313360324512	5.1383695817657
0.81156000000000	0.81343395044443	5.1395619638197
0.81160000000000	0.81373447897696	5.1407548223268
0.81164000000000	0.81403518899000	5.1419481575727
0.81168000000000	0.81433608063098	5.1431419698429
0.81172000000000	0.81463715404746	5.1443362594233
0.81176000000000	0.81493840938717	5.1455310265999
0.81180000000000	0.81523984679799	5.1467262716591
0.81184000000000	0.81554146642794	5.1479219948874
0.81188000000000	0.81584326842520	5.1491181965717
0.81192000000000	0.81614525293809	5.1503148769988
0.81196000000000	0.81644742011510	5.1515120364560
0.81200000000000	0.81674977010486	5.1527096752308
0.81204000000000	0.81705230305615	5.1539077936107
0.81208000000000	0.81735501911788	5.1551063918838
0.81212000000000	0.81765791843918	5.1563054703382
0.81216000000000	0.81796100116925	5.1575050292621
0.81220000000000	0.81826426745750	5.1587050689441
0.81224000000000	0.81856771745347	5.1599055896731
0.81228000000000	0.81887135130684	5.1611065917381
0.81232000000000	0.81917516916747	5.1623080754284
0.81236000000000	0.81947917118537	5.1635100410333
0.81240000000000	0.81978335751068	5.1647124888427
0.81244000000000	0.82008772829370	5.1659154191465
0.81248000000000	0.82039228368491	5.1671188322349
0.81252000000000	0.82069702383490	5.1683227283981
0.81256000000000	0.82100194889446	5.1695271079270
0.81260000000000	0.82130705901452	5.1707319711123
0.81264000000000	0.82161235434613	5.1719373182450
0.81268000000000	0.82191783504054	5.1731431496167
0.81272000000000	0.82222350124913	5.1743494655186
0.81276000000000	0.82252935312344	5.1755562662428
0.81280000000000	0.82283539081518	5.1767635520810
0.81284000000000	0.82314161447617	5.1779713233257
0.81288000000000	0.82344802425845	5.1791795802691
0.81292000000000	0.82375462031417	5.1803883232042
0.81296000000000	0.82406140279565	5.1815975524237
0.81300000000000	0.82436837185536	5.1828072682208
0.81304000000000	0.82467552764593	5.1840174708889
0.81308000000000	0.82498287032016	5.1852281607216
0.81312000000000	0.82529040003098	5.1864393380129
0.81316000000000	0.82559811693150	5.1876510030567
0.81320000000000	0.82590602117496	5.1888631561474
0.81324000000000	0.82621411291480	5.1900757975795
0.81328000000000	0.82652239230459	5.1912889276478
0.81332000000000	0.82683085949802	5.1925025466474
0.81336000000000	0.82713951464903	5.1937166548734
0.81340000000000	0.82744835791165	5.1949312526215
0.81344000000000	0.82775738944006	5.1961463401872
0.81348000000000	0.82806660938865	5.1973619178665
0.81352000000000	0.82837601791193	5.1985779859556
0.81356000000000	0.82868561516457	5.1997945447510
0.81360000000000	0.82899540130142	5.2010115945492
0.81364000000000	0.82930537647748	5.2022291356473
0.81368000000000	0.82961554084790	5.2034471683422
0.81372000000000	0.82992589456800	5.2046656929313
0.81376000000000	0.83023643779326	5.2058847097124
0.81380000000000	0.83054717067931	5.2071042189830
0.81384000000000	0.83085809338194	5.2083242210415
0.81388000000000	0.83116920605712	5.2095447161860
0.81392000000000	0.83148050886096	5.2107657047150
0.81396000000000	0.83179200194973	5.2119871869274
0.81400000000000	0.83210368547989	5.2132091631222
0.81404000000000	0.83241555960802	5.2144316335986
0.81408000000000	0.83272762449089	5.2156545986561
0.81412000000000	0.83303988028542	5.2168780585945
0.81416000000000	0.83335232714869	5.2181020137136
0.81420000000000	0.83366496523797	5.2193264643137
0.81424000000000	0.83397779471063	5.2205514106952
0.81428000000000	0.83429081572427	5.2217768531589
0.81432000000000	0.83460402843661	5.2230027920055
0.81436000000000	0.83491743300555	5.2242292275363
0.81440000000000	0.83523102958916	5.2254561600527
0.81444000000000	0.83554481834563	5.2266835898563
0.81448000000000	0.83585879943338	5.2279115172490
0.81452000000000	0.83617297301094	5.2291399425329
0.81456000000000	0.83648733923703	5.2303688660103
0.81460000000000	0.83680189827052	5.2315982879838
0.81464000000000	0.83711665027046	5.2328282087563
0.81468000000000	0.83743159539605	5.2340586286308
0.81472000000000	0.83774673380666	5.2352895479107
0.81476000000000	0.83806206566181	5.2365209668995
0.81480000000000	0.83837759112122	5.2377528859010
0.81484000000000	0.83869331034475	5.2389853052193
0.81488000000000	0.83900922349241	5.2402182251586
0.81492000000000	0.83932533072443	5.2414516460234
0.81496000000000	0.83964163220115	5.2426855681186
0.81500000000000	0.83995812808309	5.2439199917491
0.81504000000000	0.84027481853095	5.2451549172203
0.81508000000000	0.84059170370560	5.2463903448375
0.81512000000000	0.84090878376807	5.2476262749065
0.81516000000000	0.84122605887952	5.2488627077333
0.81520000000000	0.84154352920133	5.2500996436242
0.81524000000000	0.84186119489504	5.2513370828856
